date Die Sep 16 16:51:48 2014
base hex  timestamps absolute
internal events logged
// version 8.1.0
Begin Triggerblock Die Sep 16 16:51:48 2014
   0.000000 Start of measurement
   0.000000    EnvUdpServerIp := "192.168.100.160"
   0.000000    EnvUdpServerPort := 400
   0.000000    EnvTcpClientIp := "192.168.100.96"
   0.000000    EnvTcpServerIp := "192.168.100.150"
   0.000000    EnvTcpServerPort := 2ee2
   0.003430 1  1033384x        Rx   d 3 06 94 F0  Length = 0 BitCount = 0 ID = 16987012x
   0.004306 1  1CECF003x       Rx   d 8 02 4B 00 1C C6 00 13 00  Length = 0 BitCount = 0 ID = 485289987x
   0.007140 2  CF00400x        Rx   d 8 FF BA B3 C5 3B FF FF FF  Length = 0 BitCount = 0 ID = 217056256x
   0.007198 3  18EF1CD2x       Rx   d 8 01 00 00 00 00 00 00 00  Length = 0 BitCount = 0 ID = 418323666x
   0.007837 2  CF00300x        Rx   d 8 FF 00 4E FF FF FF FF FF  Length = 0 BitCount = 0 ID = 217056000x
   0.007838 3  18FEF1FBx       Rx   d 8 00 52 03 00 00 00 00 00  Length = 0 BitCount = 0 ID = 419361275x
   0.007962 1  10281FA0x       Rx   d 8 1A 00 00 00 00 00 00 00  Length = 0 BitCount = 0 ID = 271064992x
   0.008479 3  1CFFE2D2x       Rx   d 8 03 00 00 00 6A 07 38 FF  Length = 0 BitCount = 0 ID = 486531794x
   0.008778 1  1CECF003x       Rx   d 8 03 4B 00 2B 16 00 20 00  Length = 0 BitCount = 0 ID = 485289987x
   0.009127 3  1CFFE3D2x       Rx   d 8 03 00 00 00 00 00 24 FF  Length = 0 BitCount = 0 ID = 486532050x
   0.009775 3  1CFFE4D2x       Rx   d 8 03 00 00 00 00 00 00 FF  Length = 0 BitCount = 0 ID = 486532306x
   0.010419 3  1CFFE6D2x       Rx   d 8 FF FF 03 52 FF FF 01 00  Length = 0 BitCount = 0 ID = 486532818x
   0.010514 1  1CF0F1E0x       Rx   d 8 00 00 00 00 E5 3C 00 00  Length = 0 BitCount = 0 ID = 485552608x
   0.010988 3  CADD21Cx        Rx   d 8 68 7B 00 00 00 00 00 00  Length = 0 BitCount = 0 ID = 212718108x
   0.011000    EnvTcpConnectionOK := 1
   0.011556 3  1CFFE8D2x       Rx   d 8 00 00 FF C1 0A 9E 00 05  Length = 0 BitCount = 0 ID = 486533330x
   0.011981 2  C000003x        Rx   d 8 0D C0 3D E1 FF FF FF FF  Length = 0 BitCount = 0 ID = 201326595x
   0.012448 3  1CFFE8D2x       Rx   d 8 00 00 00 00 0A B3 00 05  Length = 0 BitCount = 0 ID = 486533330x
   0.013576 3  1CFFE3D2x       Rx   d 8 03 00 00 00 00 00 24 FF  Length = 0 BitCount = 0 ID = 486532050x
   0.014213 3  1CFFE2D2x       Rx   d 8 03 00 00 00 AA 07 32 FF  Length = 0 BitCount = 0 ID = 486531794x
   0.014330 1  1CECF003x       Rx   d 8 02 4B 00 1C B4 00 15 00  Length = 0 BitCount = 0 ID = 485289987x
   0.014869 3  1CFFE4D2x       Rx   d 8 03 00 00 00 00 00 00 FF  Length = 0 BitCount = 0 ID = 486532306x
   0.016802 3  1CFFE8D2x       Rx   d 8 00 00 FF C1 0A A3 00 05  Length = 0 BitCount = 0 ID = 486533330x
   0.017177 2  18FEF112x       Rx   d 8 00 52 03 04 00 00 00 00  Length = 0 BitCount = 0 ID = 419361042x
   0.017203 1  1429000Bx       Rx   d 8 0C FE 00 00 00 00 00 00  Length = 0 BitCount = 0 ID = 338231307x
   0.017770 3  1CFFE3D2x       Rx   d 8 03 00 00 00 00 00 24 FF  Length = 0 BitCount = 0 ID = 486532050x
   0.017856 1  1CF2F00Ax       Rx   d 8 00 00 00 00 06 E8 08 12  Length = 0 BitCount = 0 ID = 485683210x
   0.017887 CAN 1 Status:chip status error active
   0.017887 CAN 2 Status:chip status error active
   0.017887 CAN 3 Status:chip status error active
   0.017887 CAN 4 Status:chip status error active
   0.018414 3  1CFFE2D2x       Rx   d 8 03 00 00 00 6A 07 38 FF  Length = 0 BitCount = 0 ID = 486531794x
   0.018440 1  1CF2000Ex       Rx   d 8 00 14 FF FE 00 00 00 00  Length = 0 BitCount = 0 ID = 485621774x
   0.018982 3  CADD21Cx        Rx   d 8 68 7B 00 00 00 00 00 00  Length = 0 BitCount = 0 ID = 212718108x
   0.019008 1  1CECF003x       Rx   d 8 03 4B 00 2B E8 00 0E 00  Length = 0 BitCount = 0 ID = 485289987x
   0.019559 3  1CFFE4D2x       Rx   d 8 03 00 00 00 00 00 00 FF  Length = 0 BitCount = 0 ID = 486532306x
   0.019580 1  10400B6Bx       Rx   d 8 00 77 C4 01 00 00 00 00  Length = 0 BitCount = 0 ID = 272632683x
   0.020156 1  1420000Ex       Rx   d 8 00 10 00 14 FF FE 00 00  Length = 0 BitCount = 0 ID = 337641486x
   0.020740 1  1042606Bx       Rx   d 8 00 00 00 00 00 00 00 00  Length = 0 BitCount = 0 ID = 272785515x
   0.020758 2  CF00400x        Rx   d 8 FF BA B4 D3 3B FF FF FF  Length = 0 BitCount = 0 ID = 217056256x
   0.021308 1  1CF0F1E0x       Rx   d 8 00 00 00 00 09 3D 00 00  Length = 0 BitCount = 0 ID = 485552608x
   0.021313 2  C000305x        Rx   d 8 FD A0 28 E1 A4 1F C4 09  Length = 0 BitCount = 0 ID = 201327365x
   0.021876 1  1CF5F075x       Rx   d 8 00 DE 02 09 01 FA 01 9F  Length = 0 BitCount = 0 ID = 485879925x
   0.021894 2  18FEDF00x       Rx   d 8 84 C0 3D FF FF FF FF FF  Length = 0 BitCount = 0 ID = 419356416x
   0.022456 1  11606B60x       Rx   d 8 00 00 00 00 00 00 00 00  Length = 0 BitCount = 0 ID = 291531616x
   0.022457 2  18FEF105x       Rx   d 8 FF 4E 03 F4 FF FF 00 FF  Length = 0 BitCount = 0 ID = 419361029x
   0.022731 3  1CFFE8D2x       Rx   d 8 00 00 00 00 0A A3 00 05  Length = 0 BitCount = 0 ID = 486533330x
   0.023033 1  1CF8F075x       Rx   d 8 00 00 03 E8 00 00 00 DE  Length = 0 BitCount = 0 ID = 486076533x
   0.023034 2  C000003x        Rx   d 8 0D C0 3D E1 FF FF FF FF  Length = 0 BitCount = 0 ID = 201326595x
   0.023589 1  14320060x       Rx   d 8 05 85 50 30 4B 01 04 B0  Length = 0 BitCount = 0 ID = 338821216x
   0.024165 1  14201A1Bx       Rx   d 8 03 42 00 00 00 00 00 00  Length = 0 BitCount = 0 ID = 337648155x
   0.024352 3  1CFFE3D2x       Rx   d 8 03 00 00 00 00 00 24 FF  Length = 0 BitCount = 0 ID = 486532050x
   0.024717 1  1420001Cx       Rx   d 8 DC 3B 0D 09 14 1D FF FF  Length = 0 BitCount = 0 ID = 337641500x
   0.025040 3  1CFFE2D2x       Rx   d 8 03 00 00 00 33 07 3D FF  Length = 0 BitCount = 0 ID = 486531794x
   0.025229 1  14200090x       Rx   d 7 27 47 1B 44 A3 EF 12  Length = 0 BitCount = 0 ID = 337641616x
   0.025356 3  105             Rx   d 2 AA AA  Length = 0 BitCount = 0 ID = 261
   0.025777 1  1421001Cx       Rx   d 8 B0 0A E9 9B DF 84 9B 82  Length = 0 BitCount = 0 ID = 337707036x
   0.025997 3  CAD131Bx        Rx   d 8 80 7D 00 00 00 00 00 00  Length = 0 BitCount = 0 ID = 212669211x
   0.026341 1  1422001Cx       Rx   d 8 80 A1 49 03 FF FF 0B 55  Length = 0 BitCount = 0 ID = 337772572x
   0.026661 3  1CFFE4D2x       Rx   d 8 03 00 00 00 00 00 00 FF  Length = 0 BitCount = 0 ID = 486532306x
   0.026914 1  14330060x       Rx   d 8 2B 5C 06 00 00 00 00 00  Length = 0 BitCount = 0 ID = 338886752x
   0.027229 3  CADD21Cx        Rx   d 8 68 7B 00 00 00 00 00 00  Length = 0 BitCount = 0 ID = 212718108x
   0.027482 1  1CF0F1E0x       Rx   d 8 00 00 00 00 2D 3D 00 00  Length = 0 BitCount = 0 ID = 485552608x
   0.027797 3  1CFFE8D2x       Rx   d 8 00 00 FF C1 0A 8D 00 00  Length = 0 BitCount = 0 ID = 486533330x
   0.028050 1  1CECF003x       Rx   d 8 03 4B 00 2B FC 00 0C 00  Length = 0 BitCount = 0 ID = 485289987x
   0.028630 1  1CFAF075x       Rx   d 8 00 00 00 00 00 14 00 01  Length = 0 BitCount = 0 ID = 486207605x
   0.029182 1  1CECF003x       Rx   d 8 02 4B 0A 1C C6 00 13 00  Length = 0 BitCount = 0 ID = 485289987x
   0.029446 3  1CFFE3D2x       Rx   d 8 03 00 00 00 00 00 24 FF  Length = 0 BitCount = 0 ID = 486532050x
   0.029763 1  10211FA0x       Rx   d 8 1A 00 24 00 50 01 40 05  Length = 0 BitCount = 0 ID = 270606240x
   0.030082 3  1CFFE2D2x       Rx   d 8 03 00 00 00 33 07 3D FF  Length = 0 BitCount = 0 ID = 486531794x
   0.030730 3  1CFFE4D2x       Rx   d 8 03 00 00 00 00 00 00 FF  Length = 0 BitCount = 0 ID = 486532306x
   0.032258 2  C000003x        Rx   d 8 0D C0 3D E1 FF FF FF FF  Length = 0 BitCount = 0 ID = 201326595x
   0.032639 3  1CFFE8D2x       Rx   d 8 00 00 FF C1 0A 83 00 00  Length = 0 BitCount = 0 ID = 486533330x
   0.033403 1  1423007Dx       Rx   d 8 00 00 0B 68 00 00 00 00  Length = 0 BitCount = 0 ID = 337838205x
   0.033947 3  1CFFE3D2x       Rx   d 8 03 00 00 00 00 00 24 FF  Length = 0 BitCount = 0 ID = 486532050x
   0.034151 1  1CECF003x       Rx   d 8 03 4B 0A 2B DE 00 0F 00  Length = 0 BitCount = 0 ID = 485289987x
   0.034588 3  1CFFE2D2x       Rx   d 8 03 00 00 00 6A 07 38 FF  Length = 0 BitCount = 0 ID = 486531794x
   0.035252 3  1CFFE4D2x       Rx   d 8 03 00 00 00 00 00 00 FF  Length = 0 BitCount = 0 ID = 486532306x
   0.035880 3  CAD131Bx        Rx   d 8 80 7D 00 00 00 00 00 00  Length = 0 BitCount = 0 ID = 212669211x
   0.036052 1  1CF0F1E0x       Rx   d 8 00 00 00 00 51 3D 00 00  Length = 0 BitCount = 0 ID = 485552608x
   0.036448 3  CADD21Cx        Rx   d 8 68 7B 00 00 00 00 00 00  Length = 0 BitCount = 0 ID = 212718108x
   0.037737 3  1CFFE8D2x       Rx   d 8 00 00 00 00 0A B9 00 00  Length = 0 BitCount = 0 ID = 486533330x
   0.038725 3  1CFFE3D2x       Rx   d 8 03 00 00 00 00 00 24 FF  Length = 0 BitCount = 0 ID = 486532050x
   0.038760 1  1CECF003x       Rx   d 8 02 4A F6 1C A1 00 17 00  Length = 0 BitCount = 0 ID = 485289987x
   0.039361 3  1CFFE2D2x       Rx   d 8 03 00 00 00 33 07 3D FF  Length = 0 BitCount = 0 ID = 486531794x
   0.039539 2  CF00400x        Rx   d 8 FF BA B4 D4 3B FF FF FF  Length = 0 BitCount = 0 ID = 217056256x
   0.040010 3  1CFFE4D2x       Rx   d 8 03 00 00 00 00 00 00 FF  Length = 0 BitCount = 0 ID = 486532306x
   0.041101 1  1CF2F00Ax       Rx   d 8 00 00 00 00 06 7F 08 30  Length = 0 BitCount = 0 ID = 485683210x
   0.042267 2  C000003x        Rx   d 8 0D C0 3D E1 FF FF FF FF  Length = 0 BitCount = 0 ID = 201326595x
